
**** 10/25/21 15:47:08 ****** PSpice 17.2.0 (March 2016) ****** ID# 0 ********

 MOS_FB_AMP


 ****     CIRCUIT DESCRIPTION


******************************************************************************



VS 1 0 AC 1E-6
C1 1 2 10E-6
RF 2 3 1E6
RD 4 3 4E3
C2 3 5 10E-6
RL 5 0 6E3
VDD 4 0 DC 22
M1 3 2 0 0 NMOD
.MODEL NMOD NMOS (KP=0.5E-3 VTO=2)
.AC LIN 1 100E3 100E3
.PRINT AC VM(5) VM(1) VP(5)
.PROBE
.TF V(3) VS
.OP
.END

**** 10/25/21 15:47:08 ****** PSpice 17.2.0 (March 2016) ****** ID# 0 ********

 MOS_FB_AMP


 ****     MOSFET MODEL PARAMETERS


******************************************************************************




               NMOD            
               NMOS            
       LEVEL    1            
           L  100.000000E-06 
           W  100.000000E-06 
         VTO    2            
          KP  500.000000E-06 
       GAMMA    0            
         PHI     .6          
      LAMBDA    0            
          IS   10.000000E-15 
          JS    0            
          PB     .8          
        PBSW     .8          
          CJ    0            
        CJSW    0            
        CGSO    0            
        CGDO    0            
        CGBO    0            
         TOX    0            
          XJ    0            
       UCRIT   10.000000E+03 
      DIOMOD    1            
         VFB    0            
        LETA    0            
        WETA    0            
          U0    0            
        TEMP    0            
         VDD    5            
       XPART    0            


**** 10/25/21 15:47:08 ****** PSpice 17.2.0 (March 2016) ****** ID# 0 ********

 MOS_FB_AMP


 ****     SMALL SIGNAL BIAS SOLUTION       TEMPERATURE =   27.000 DEG C


******************************************************************************



 NODE   VOLTAGE     NODE   VOLTAGE     NODE   VOLTAGE     NODE   VOLTAGE


(    1)    0.0000  (    2)    6.0000  (    3)    6.0000  (    4)   22.0000      

(    5)    0.0000  




    VOLTAGE SOURCE CURRENTS
    NAME         CURRENT

    VS           0.000E+00
    VDD         -4.000E-03

    TOTAL POWER DISSIPATION   8.80E-02  WATTS


**** 10/25/21 15:47:08 ****** PSpice 17.2.0 (March 2016) ****** ID# 0 ********

 MOS_FB_AMP


 ****     OPERATING POINT INFORMATION      TEMPERATURE =   27.000 DEG C


******************************************************************************






**** MOSFETS


NAME         M1        
MODEL        NMOD      
ID           4.00E-03 
VGS          6.00E+00 
VDS          6.00E+00 
VBS          0.00E+00 
VTH          2.00E+00 
VDSAT        4.00E+00 
Lin0/Sat1   -1.00E+00 
if          -1.00E+00 
ir          -1.00E+00 
TAU         -1.00E+00 
GM           2.00E-03 
GDS          0.00E+00 
GMB          0.00E+00 
CBD          0.00E+00 
CBS          0.00E+00 
CGSOV        0.00E+00 
CGDOV        0.00E+00 
CGBOV        0.00E+00 
CGS          0.00E+00 
CGD          0.00E+00 
CGB          0.00E+00 




 ****     SMALL-SIGNAL CHARACTERISTICS


      V(3)/VS =  0.000E+00

      INPUT RESISTANCE AT VS =  1.000E+20

      OUTPUT RESISTANCE AT V(3) =  4.444E+02

**** 10/25/21 15:47:08 ****** PSpice 17.2.0 (March 2016) ****** ID# 0 ********

 MOS_FB_AMP


 ****     AC ANALYSIS                      TEMPERATURE =   27.000 DEG C


******************************************************************************



  FREQ        VM(5)       VM(1)       VP(5)       


   1.000E+05   4.786E-06   1.000E-06  -1.800E+02


          JOB CONCLUDED

**** 10/25/21 15:47:08 ****** PSpice 17.2.0 (March 2016) ****** ID# 0 ********

 MOS_FB_AMP


 ****     JOB STATISTICS SUMMARY


******************************************************************************



  Total job time (using Solver 1)   =         .02
