
**** 10/25/21 14:57:32 ****** PSpice 17.2.0 (March 2016) ****** ID# 0 ********

 OPAMP


 ****     CIRCUIT DESCRIPTION


******************************************************************************



V1 1 0 DC 0.1
R1 1 3 1E3
R2 2 0 1E3
R3 2 6 100E3
RL 6 0 10E3
XOPAMP 3 2 7 4 6 uA741
VS1 7 0 DC 15
VS2 4 0 DC -15
.LIB EVAL.LIB
.TRAN 1 1
.PRINT TRAN V(6)
.END

**** 10/25/21 14:57:32 ****** PSpice 17.2.0 (March 2016) ****** ID# 0 ********

 OPAMP


 ****     Diode MODEL PARAMETERS


******************************************************************************




               XOPAMP.dx       
          IS  800.000000E-18 
          RS    1            


**** 10/25/21 14:57:32 ****** PSpice 17.2.0 (March 2016) ****** ID# 0 ********

 OPAMP


 ****     BJT MODEL PARAMETERS


******************************************************************************




               XOPAMP.qx       
               NPN             
       LEVEL    1            
          IS  800.000000E-18 
          BF   93.75         
          NF    1            
          BR    1            
          NR    1            
         ISS    0            
          RE    0            
          RC    0            
         CJE    0            
         VJE     .75         
         CJC    0            
         VJC     .75         
         MJC     .33         
        XCJC    1            
         CJS    0            
         VJS     .75         
          KF    0            
          AF    1            
          CN    2.42         
           D     .87         


**** 10/25/21 14:57:32 ****** PSpice 17.2.0 (March 2016) ****** ID# 0 ********

 OPAMP


 ****     INITIAL TRANSIENT SOLUTION       TEMPERATURE =   27.000 DEG C


******************************************************************************



 NODE   VOLTAGE     NODE   VOLTAGE     NODE   VOLTAGE     NODE   VOLTAGE


(    1)     .1000  (    2)     .0999  (    3)     .0999  (    4)  -15.0000      

(    6)   10.0960  (    7)   15.0000  (XOPAMP.6)-969.4E-06                      

(XOPAMP.7)   10.1520                  (XOPAMP.8)   10.1520                      

(XOPAMP.9)    0.0000                  (XOPAMP.10)    -.5078                     

(XOPAMP.11)   14.9600                 (XOPAMP.12)   14.9600                     

(XOPAMP.13)    -.4939                 (XOPAMP.14)    -.4939                     

(XOPAMP.53)   14.0000                 (XOPAMP.54)  -14.0000                     

(XOPAMP.90)    1.1096                 (XOPAMP.91)   40.0000                     

(XOPAMP.92)  -40.0000                 (XOPAMP.99)    0.0000                 




    VOLTAGE SOURCE CURRENTS
    NAME         CURRENT

    V1          -7.982E-08
    VS1         -1.667E-03
    VS2          1.667E-03
    XOPAMP.vb   -9.694E-09
    XOPAMP.vc    3.904E-12
    XOPAMP.ve    2.410E-11
    XOPAMP.vlim   1.110E-03
    XOPAMP.vlp  -3.889E-11
    XOPAMP.vln  -4.111E-11

    TOTAL POWER DISSIPATION   5.00E-02  WATTS


**** 10/25/21 14:57:32 ****** PSpice 17.2.0 (March 2016) ****** ID# 0 ********

 OPAMP


 ****     TRANSIENT ANALYSIS               TEMPERATURE =   27.000 DEG C


******************************************************************************



  TIME        V(6)        

   0.000E+00   1.010E+01
   1.000E+00   1.010E+01




          JOB CONCLUDED

**** 10/25/21 14:57:32 ****** PSpice 17.2.0 (March 2016) ****** ID# 0 ********

 OPAMP


 ****     JOB STATISTICS SUMMARY


******************************************************************************



  Total job time (using Solver 1)   =        0.00
