
**** 10/24/21 19:15:36 ****** PSpice 17.2.0 (March 2016) ****** ID# 0 ********

 SEDRA5.10


 ****     CIRCUIT DESCRIPTION


******************************************************************************



VDD 1 0 DC 15
RD 1 2 10E3
M1 2 3 0 0 NMOD
RGD 2 3 10E6
CC1 5 3 1E-6
VIN 5 0 AC 1E-6
CC2 2 4 1E-6
RL 4 0 10E3
.MODEL NMOD NMOS (KP=0.25E-3 VTO=1.5 LAMBDA=0.02)
.AC DEC 1000 1 1E6
.OP
.PROBE
.END

**** 10/24/21 19:15:36 ****** PSpice 17.2.0 (March 2016) ****** ID# 0 ********

 SEDRA5.10


 ****     MOSFET MODEL PARAMETERS


******************************************************************************




               NMOD            
               NMOS            
       LEVEL    1            
           L  100.000000E-06 
           W  100.000000E-06 
         VTO    1.5          
          KP  250.000000E-06 
       GAMMA    0            
         PHI     .6          
      LAMBDA     .02         
          IS   10.000000E-15 
          JS    0            
          PB     .8          
        PBSW     .8          
          CJ    0            
        CJSW    0            
        CGSO    0            
        CGDO    0            
        CGBO    0            
         TOX    0            
          XJ    0            
       UCRIT   10.000000E+03 
      DIOMOD    1            
         VFB    0            
        LETA    0            
        WETA    0            
          U0    0            
        TEMP    0            
         VDD    5            
       XPART    0            


**** 10/24/21 19:15:36 ****** PSpice 17.2.0 (March 2016) ****** ID# 0 ********

 SEDRA5.10


 ****     SMALL SIGNAL BIAS SOLUTION       TEMPERATURE =   27.000 DEG C


******************************************************************************



 NODE   VOLTAGE     NODE   VOLTAGE     NODE   VOLTAGE     NODE   VOLTAGE


(    1)   15.0000  (    2)    4.3065  (    3)    4.3065  (    4)    0.0000      

(    5)    0.0000  




    VOLTAGE SOURCE CURRENTS
    NAME         CURRENT

    VDD         -1.069E-03
    VIN          0.000E+00

    TOTAL POWER DISSIPATION   1.60E-02  WATTS


**** 10/24/21 19:15:36 ****** PSpice 17.2.0 (March 2016) ****** ID# 0 ********

 SEDRA5.10


 ****     OPERATING POINT INFORMATION      TEMPERATURE =   27.000 DEG C


******************************************************************************






**** MOSFETS


NAME         M1        
MODEL        NMOD      
ID           1.07E-03 
VGS          4.31E+00 
VDS          4.31E+00 
VBS          0.00E+00 
VTH          1.50E+00 
VDSAT        2.81E+00 
Lin0/Sat1   -1.00E+00 
if          -1.00E+00 
ir          -1.00E+00 
TAU         -1.00E+00 
GM           7.62E-04 
GDS          1.97E-05 
GMB          0.00E+00 
CBD          0.00E+00 
CBS          0.00E+00 
CGSOV        0.00E+00 
CGDOV        0.00E+00 
CGBOV        0.00E+00 
CGS          0.00E+00 
CGD          0.00E+00 
CGB          0.00E+00 

          JOB CONCLUDED

**** 10/24/21 19:15:36 ****** PSpice 17.2.0 (March 2016) ****** ID# 0 ********

 SEDRA5.10


 ****     JOB STATISTICS SUMMARY


******************************************************************************



  Total job time (using Solver 1)   =         .05
