
**** 10/24/21 17:34:15 ****** PSpice 17.2.0 (March 2016) ****** ID# 0 ********

 TEST2


 ****     CIRCUIT DESCRIPTION


******************************************************************************



VDD 3 0 DC 10
RD 3 2 1E3
M1 2 1 0 0 NMOD
.MODEL NMOD NMOS (KP=10E-3 VTO=2)
VG 1 0 4
C1 2 0 100E-12 IC=10
.TRAN 10E-9 400E-9
.PROBE
.END

**** 10/24/21 17:34:15 ****** PSpice 17.2.0 (March 2016) ****** ID# 0 ********

 TEST2


 ****     MOSFET MODEL PARAMETERS


******************************************************************************




               NMOD            
               NMOS            
       LEVEL    1            
           L  100.000000E-06 
           W  100.000000E-06 
         VTO    2            
          KP     .01         
       GAMMA    0            
         PHI     .6          
      LAMBDA    0            
          IS   10.000000E-15 
          JS    0            
          PB     .8          
        PBSW     .8          
          CJ    0            
        CJSW    0            
        CGSO    0            
        CGDO    0            
        CGBO    0            
         TOX    0            
          XJ    0            
       UCRIT   10.000000E+03 
      DIOMOD    1            
         VFB    0            
        LETA    0            
        WETA    0            
          U0    0            
        TEMP    0            
         VDD    5            
       XPART    0            


**** 10/24/21 17:34:15 ****** PSpice 17.2.0 (March 2016) ****** ID# 0 ********

 TEST2


 ****     INITIAL TRANSIENT SOLUTION       TEMPERATURE =   27.000 DEG C


******************************************************************************



 NODE   VOLTAGE     NODE   VOLTAGE     NODE   VOLTAGE     NODE   VOLTAGE


(    1)    4.0000  (    2)   10.0000  (    3)   10.0000  




    VOLTAGE SOURCE CURRENTS
    NAME         CURRENT

    VDD         -4.000E-08
    VG           0.000E+00

    TOTAL POWER DISSIPATION   4.00E-07  WATTS



          JOB CONCLUDED

**** 10/24/21 17:34:15 ****** PSpice 17.2.0 (March 2016) ****** ID# 0 ********

 TEST2


 ****     JOB STATISTICS SUMMARY


******************************************************************************



  Total job time (using Solver 1)   =         .02
