
**** 10/24/21 15:29:29 ****** PSpice 17.2.0 (March 2016) ****** ID# 0 ********

 TRANSIENT_1


 ****     CIRCUIT DESCRIPTION


******************************************************************************



V1 1 0 PWL(0 12 40 12 40 24)
R1 1 2 6E3
R2 3 0 3E3
C1 2 0 0.5E-3 IC=0
*SWITCH INPUT
V2 4 0 PWL(0 -1 50 -1 50 1)
R3 4 0 1
*MODEL VOLTAGE CONTROLLED SWITCH
S1 2 3 4 0 SMOD
.MODEL SMOD VSWITCH (VT=0)
.TRAN 0.01 100 0 UIC
.OP
.PROBE
.END

**** 10/24/21 15:29:29 ****** PSpice 17.2.0 (March 2016) ****** ID# 0 ********

 TRANSIENT_1


 ****     Voltage Controlled Switch MODEL PARAMETERS


******************************************************************************




               SMOD            
         RON    1            
        ROFF    1.000000E+12 
          VT    0            
          VH    0            
          TD    0            


**** 10/24/21 15:29:29 ****** PSpice 17.2.0 (March 2016) ****** ID# 0 ********

 TRANSIENT_1


 ****     SMALL SIGNAL BIAS SOLUTION       TEMPERATURE =   27.000 DEG C


******************************************************************************



 NODE   VOLTAGE     NODE   VOLTAGE     NODE   VOLTAGE     NODE   VOLTAGE


(    1)   12.0000  (    2)   12.0000  (    3) 36.00E-09  (    4)   -1.0000  




    VOLTAGE SOURCE CURRENTS
    NAME         CURRENT

    V1          -1.200E-11
    V2           1.000E+00

    TOTAL POWER DISSIPATION   1.00E+00  WATTS


**** 10/24/21 15:29:29 ****** PSpice 17.2.0 (March 2016) ****** ID# 0 ********

 TRANSIENT_1


 ****     OPERATING POINT INFORMATION      TEMPERATURE =   27.000 DEG C


******************************************************************************






**** VOLTAGE CONTROLLED SWITCHES


NAME         S1        
MODEL        SMOD      
I LOAD       1.20E-11 
V LOAD       1.20E+01 
R LOAD       1.00E+12 
V CTRL      -1.00E+00 

          JOB CONCLUDED

**** 10/24/21 15:29:29 ****** PSpice 17.2.0 (March 2016) ****** ID# 0 ********

 TRANSIENT_1


 ****     JOB STATISTICS SUMMARY


******************************************************************************



  Total job time (using Solver 1)   =        0.00
