
**** 11/10/21 10:04:02 ******* PSpice Lite (March 2016) ******* ID# 10813 ****

 PD_FWBR_V_CHAR


 ****     CIRCUIT DESCRIPTION


******************************************************************************



*V1 1 0 DC 1
V1 1 0 SIN(0 4 1)
R1 1 2 1E3
R2 2 3 2E3
E1 4 0 0 2 1E9
R3 2 5 2E3
D1 3 4 DMOD
D2 4 5 DMOD
R4 3 6 2E3
R5 6 7 2E3
E2 7 0 5 6 1E9
.MODEL DMOD D
*.DC V1 -5 5 0.05
.TRAN 0.01 2 0
.PROBE V(7) V(1)
.END

**** 11/10/21 10:04:02 ******* PSpice Lite (March 2016) ******* ID# 10813 ****

 PD_FWBR_V_CHAR


 ****     Diode MODEL PARAMETERS


******************************************************************************




               DMOD            
          IS   10.000000E-15 


**** 11/10/21 10:04:02 ******* PSpice Lite (March 2016) ******* ID# 10813 ****

 PD_FWBR_V_CHAR


 ****     INITIAL TRANSIENT SOLUTION       TEMPERATURE =   27.000 DEG C


******************************************************************************



 NODE   VOLTAGE     NODE   VOLTAGE     NODE   VOLTAGE     NODE   VOLTAGE


(    1)    0.0000  (    2) 328.0E-30  (    3) 300.7E-30  (    4)-328.0E-21      

(    5) 1.011E-27  (    6) 1.011E-27  (    7) 1.722E-27  




    VOLTAGE SOURCE CURRENTS
    NAME         CURRENT

    V1           0.000E+00

    TOTAL POWER DISSIPATION   0.00E+00  WATTS



          JOB CONCLUDED

**** 11/10/21 10:04:02 ******* PSpice Lite (March 2016) ******* ID# 10813 ****

 PD_FWBR_V_CHAR


 ****     JOB STATISTICS SUMMARY


******************************************************************************



  Total job time (using Solver 1)   =         .02
