
**** 09/24/21 12:39:06 ****** PSpice 17.2.0 (March 2016) ****** ID# 0 ********

 EG1 MULTIDCSOURCE


 ****     CIRCUIT DESCRIPTION


******************************************************************************



V1 1 0 DC 24
R1 1 2 10E3
R2 2 3 8.1E3
R3 2 0 4.7E3
V2 3 0 DC 15
.END

**** 09/24/21 12:39:06 ****** PSpice 17.2.0 (March 2016) ****** ID# 0 ********

 EG1 MULTIDCSOURCE


 ****     SMALL SIGNAL BIAS SOLUTION       TEMPERATURE =   27.000 DEG C


******************************************************************************



 NODE   VOLTAGE     NODE   VOLTAGE     NODE   VOLTAGE     NODE   VOLTAGE


(    1)   24.0000  (    2)    9.7470  (    3)   15.0000  




    VOLTAGE SOURCE CURRENTS
    NAME         CURRENT

    V1          -1.425E-03
    V2          -6.485E-04

    TOTAL POWER DISSIPATION   4.39E-02  WATTS



          JOB CONCLUDED

**** 09/24/21 12:39:06 ****** PSpice 17.2.0 (March 2016) ****** ID# 0 ********

 EG1 MULTIDCSOURCE


 ****     JOB STATISTICS SUMMARY


******************************************************************************



  Total job time (using Solver 1)   =        0.00
