
**** 09/24/21 16:42:53 ****** PSpice 17.2.0 (March 2016) ****** ID# 0 ********

 LOW-PASS-FILTER


 ****     CIRCUIT DESCRIPTION


******************************************************************************



V2 1 0 DC 24
V1 2 1 AC 24
L1 2 3 100E-3
L2 3 4 250E-3
C1 3 0 100E-6
RL 4 0 1E3
.AC LIN 30 500 15E3
.PRINT AC V(4)
.PROBE
.END

**** 09/24/21 16:42:53 ****** PSpice 17.2.0 (March 2016) ****** ID# 0 ********

 LOW-PASS-FILTER


 ****     SMALL SIGNAL BIAS SOLUTION       TEMPERATURE =   27.000 DEG C


******************************************************************************



 NODE   VOLTAGE     NODE   VOLTAGE     NODE   VOLTAGE     NODE   VOLTAGE


(    1)   24.0000  (    2)   24.0000  (    3)   24.0000  (    4)   24.0000  




    VOLTAGE SOURCE CURRENTS
    NAME         CURRENT

    V2          -2.400E-02
    V1          -2.400E-02

    TOTAL POWER DISSIPATION   5.76E-01  WATTS


**** 09/24/21 16:42:53 ****** PSpice 17.2.0 (March 2016) ****** ID# 0 ********

 LOW-PASS-FILTER


 ****     AC ANALYSIS                      TEMPERATURE =   27.000 DEG C


******************************************************************************



  FREQ        V(4)        


   5.000E+02   1.935E-01
   1.000E+03   3.275E-02
   1.500E+03   1.057E-02
   2.000E+03   4.614E-03
   2.500E+03   2.402E-03
   3.000E+03   1.403E-03
   3.500E+03   8.884E-04
   4.000E+03   5.973E-04
   4.500E+03   4.206E-04
   5.000E+03   3.072E-04
   5.500E+03   2.311E-04
   6.000E+03   1.782E-04
   6.500E+03   1.403E-04
   7.000E+03   1.124E-04
   7.500E+03   9.141E-05
   8.000E+03   7.536E-05
   8.500E+03   6.285E-05
   9.000E+03   5.296E-05
   9.500E+03   4.504E-05
   1.000E+04   3.863E-05
   1.050E+04   3.337E-05
   1.100E+04   2.903E-05
   1.150E+04   2.541E-05
   1.200E+04   2.237E-05
   1.250E+04   1.979E-05
   1.300E+04   1.760E-05
   1.350E+04   1.571E-05
   1.400E+04   1.409E-05
   1.450E+04   1.268E-05
   1.500E+04   1.146E-05


          JOB CONCLUDED

**** 09/24/21 16:42:53 ****** PSpice 17.2.0 (March 2016) ****** ID# 0 ********

 LOW-PASS-FILTER


 ****     JOB STATISTICS SUMMARY


******************************************************************************



  Total job time (using Solver 1)   =         .09
