
**** 09/19/21 12:29:12 ****** PSpice 17.2.0 (March 2016) ****** ID# 0 ********

 eg16.5


 ****     CIRCUIT DESCRIPTION


******************************************************************************



V1 1 0 DC 1
V2 1 2 0
R1 2 3 150
R2 3 0 25
R4 4 0 1.5E3
R3 1 4 15E3
F1 4 3 V2 50
.op
.end

**** 09/19/21 12:29:12 ****** PSpice 17.2.0 (March 2016) ****** ID# 0 ********

 eg16.5


 ****     SMALL SIGNAL BIAS SOLUTION       TEMPERATURE =   27.000 DEG C


******************************************************************************



 NODE   VOLTAGE     NODE   VOLTAGE     NODE   VOLTAGE     NODE   VOLTAGE


(    1)    1.0000  (    2)    1.0000  (    3)     .8947  (    4)  -47.7560  




    VOLTAGE SOURCE CURRENTS
    NAME         CURRENT

    V1          -3.952E-03
    V2           7.018E-04

    TOTAL POWER DISSIPATION   3.95E-03  WATTS


**** 09/19/21 12:29:12 ****** PSpice 17.2.0 (March 2016) ****** ID# 0 ********

 eg16.5


 ****     OPERATING POINT INFORMATION      TEMPERATURE =   27.000 DEG C


******************************************************************************






**** CURRENT-CONTROLLED CURRENT SOURCES


NAME         F1        
I-SOURCE     3.509E-02

          JOB CONCLUDED

**** 09/19/21 12:29:12 ****** PSpice 17.2.0 (March 2016) ****** ID# 0 ********

 eg16.5


 ****     JOB STATISTICS SUMMARY


******************************************************************************



  Total job time (using Solver 1)   =         .02
