
**** 09/13/21 08:34:50 ****** PSpice 17.2.0 (March 2016) ****** ID# 0 ********

 eg16.4


 ****     CIRCUIT DESCRIPTION


******************************************************************************



V1 1 0 DC 3
R1 1 2 2
R2 2 0 6
R3 2 3 1
R4 3 0 8
G1 3 0 2 0 0.25
.OP
.END

**** 09/13/21 08:34:50 ****** PSpice 17.2.0 (March 2016) ****** ID# 0 ********

 eg16.4


 ****     SMALL SIGNAL BIAS SOLUTION       TEMPERATURE =   27.000 DEG C


******************************************************************************



 NODE   VOLTAGE     NODE   VOLTAGE     NODE   VOLTAGE     NODE   VOLTAGE


(    1)    3.0000  (    2)    1.5000  (    3)    1.0000  




    VOLTAGE SOURCE CURRENTS
    NAME         CURRENT

    V1          -7.500E-01

    TOTAL POWER DISSIPATION   2.25E+00  WATTS


**** 09/13/21 08:34:50 ****** PSpice 17.2.0 (March 2016) ****** ID# 0 ********

 eg16.4


 ****     OPERATING POINT INFORMATION      TEMPERATURE =   27.000 DEG C


******************************************************************************






**** VOLTAGE-CONTROLLED CURRENT SOURCES


NAME         G1        
I-SOURCE     3.750E-01

          JOB CONCLUDED

**** 09/13/21 08:34:50 ****** PSpice 17.2.0 (March 2016) ****** ID# 0 ********

 eg16.4


 ****     JOB STATISTICS SUMMARY


******************************************************************************



  Total job time (using Solver 1)   =         .02
