
**** 09/19/21 21:21:20 ****** PSpice 17.2.0 (March 2016) ****** ID# 0 ********

 EG16.22


 ****     CIRCUIT DESCRIPTION


******************************************************************************



VB 1 0 DC 5
RB 1 3 20E3
VCC 4 0 DC 5
RC 4 2 1E3
D 3 2 DMOD
.MODEL DMOD D (IS=2.3E-11)
Q 2 3 0 BMOD
.MODEL BMOD npn (IS=8.75E-15 BF=50)
.OP
.END

**** 09/19/21 21:21:20 ****** PSpice 17.2.0 (March 2016) ****** ID# 0 ********

 EG16.22


 ****     Diode MODEL PARAMETERS


******************************************************************************




               DMOD            
          IS   23.000000E-12 


**** 09/19/21 21:21:20 ****** PSpice 17.2.0 (March 2016) ****** ID# 0 ********

 EG16.22


 ****     BJT MODEL PARAMETERS


******************************************************************************




               BMOD            
               NPN             
       LEVEL    1            
          IS    8.750000E-15 
          BF   50            
          NF    1            
          BR    1            
          NR    1            
         ISS    0            
          RE    0            
          RC    0            
         CJE    0            
         VJE     .75         
         CJC    0            
         VJC     .75         
         MJC     .33         
        XCJC    1            
         CJS    0            
         VJS     .75         
          KF    0            
          AF    1            
          CN    2.42         
           D     .87         


**** 09/19/21 21:21:20 ****** PSpice 17.2.0 (March 2016) ****** ID# 0 ********

 EG16.22


 ****     SMALL SIGNAL BIAS SOLUTION       TEMPERATURE =   27.000 DEG C


******************************************************************************



 NODE   VOLTAGE     NODE   VOLTAGE     NODE   VOLTAGE     NODE   VOLTAGE


(    1)    5.0000  (    2)     .2995  (    3)     .6992  (    4)    5.0000  




    VOLTAGE SOURCE CURRENTS
    NAME         CURRENT

    VB          -2.150E-04
    VCC         -4.701E-03

    TOTAL POWER DISSIPATION   2.46E-02  WATTS


**** 09/19/21 21:21:20 ****** PSpice 17.2.0 (March 2016) ****** ID# 0 ********

 EG16.22


 ****     OPERATING POINT INFORMATION      TEMPERATURE =   27.000 DEG C


******************************************************************************






**** DIODES


NAME         D         
MODEL        DMOD      
ID           1.19E-04 
VD           4.00E-01 
REQ          2.18E+02 
CAP          0.00E+00 


**** BIPOLAR JUNCTION TRANSISTORS


NAME         Q         
MODEL        BMOD      
IB           9.64E-05 
IC           4.82E-03 
VBE          6.99E-01 
VBC          4.00E-01 
VCE          2.99E-01 
BETADC       5.00E+01 
GM           1.86E-01 
RPI          2.68E+02 
RX           0.00E+00 
RO           5.73E+05 
CBE          0.00E+00 
CBC          0.00E+00 
CJS          0.00E+00 
BETAAC       5.00E+01 
CBX/CBX2     0.00E+00 
FT/FT2       2.97E+18 



          JOB CONCLUDED

**** 09/19/21 21:21:20 ****** PSpice 17.2.0 (March 2016) ****** ID# 0 ********

 EG16.22


 ****     JOB STATISTICS SUMMARY


******************************************************************************



  Total job time (using Solver 1)   =        0.00
