
**** 09/19/21 21:13:18 ****** PSpice 17.2.0 (March 2016) ****** ID# 0 ********

 EG16.21


 ****     CIRCUIT DESCRIPTION


******************************************************************************



V1 1 0 DC 10
R1 1 2 2.7E3
R2 1 3 330E3
R3 4 0 1E3
Q1 2 3 4 QMOD
.MODEL QMOD NPN (IS=3.9E-15)
.OP
.END

**** 09/19/21 21:13:18 ****** PSpice 17.2.0 (March 2016) ****** ID# 0 ********

 EG16.21


 ****     BJT MODEL PARAMETERS


******************************************************************************




               QMOD            
               NPN             
       LEVEL    1            
          IS    3.900000E-15 
          BF  100            
          NF    1            
          BR    1            
          NR    1            
         ISS    0            
          RE    0            
          RC    0            
         CJE    0            
         VJE     .75         
         CJC    0            
         VJC     .75         
         MJC     .33         
        XCJC    1            
         CJS    0            
         VJS     .75         
          KF    0            
          AF    1            
          CN    2.42         
           D     .87         


**** 09/19/21 21:13:18 ****** PSpice 17.2.0 (March 2016) ****** ID# 0 ********

 EG16.21


 ****     SMALL SIGNAL BIAS SOLUTION       TEMPERATURE =   27.000 DEG C


******************************************************************************



 NODE   VOLTAGE     NODE   VOLTAGE     NODE   VOLTAGE     NODE   VOLTAGE


(    1)   10.0000  (    2)    4.1736  (    3)    2.8789  (    4)    2.1795  




    VOLTAGE SOURCE CURRENTS
    NAME         CURRENT

    V1          -2.180E-03

    TOTAL POWER DISSIPATION   2.18E-02  WATTS


**** 09/19/21 21:13:18 ****** PSpice 17.2.0 (March 2016) ****** ID# 0 ********

 EG16.21


 ****     OPERATING POINT INFORMATION      TEMPERATURE =   27.000 DEG C


******************************************************************************






**** BIPOLAR JUNCTION TRANSISTORS


NAME         Q1        
MODEL        QMOD      
IB           2.16E-05 
IC           2.16E-03 
VBE          6.99E-01 
VBC         -1.29E+00 
VCE          1.99E+00 
BETADC       1.00E+02 
GM           8.34E-02 
RPI          1.20E+03 
RX           0.00E+00 
RO           1.00E+12 
CBE          0.00E+00 
CBC          0.00E+00 
CJS          0.00E+00 
BETAAC       1.00E+02 
CBX/CBX2     0.00E+00 
FT/FT2       1.33E+18 



          JOB CONCLUDED

**** 09/19/21 21:13:18 ****** PSpice 17.2.0 (March 2016) ****** ID# 0 ********

 EG16.21


 ****     JOB STATISTICS SUMMARY


******************************************************************************



  Total job time (using Solver 1)   =        0.00
