
**** 09/13/21 10:01:54 ****** PSpice 17.2.0 (March 2016) ****** ID# 0 ********

 eg16.17


 ****     CIRCUIT DESCRIPTION


******************************************************************************



V1 1 0 DC 3
R1 2 0 1E3
D1 1 2 DMOD
.MODEL DMOD D (Is=10e-9 N=2)
.OP
.END

**** 09/13/21 10:01:54 ****** PSpice 17.2.0 (March 2016) ****** ID# 0 ********

 eg16.17


 ****     Diode MODEL PARAMETERS


******************************************************************************




               DMOD            
          IS   10.000000E-09 
           N    2            


**** 09/13/21 10:01:54 ****** PSpice 17.2.0 (March 2016) ****** ID# 0 ********

 eg16.17


 ****     SMALL SIGNAL BIAS SOLUTION       TEMPERATURE =   27.000 DEG C


******************************************************************************



 NODE   VOLTAGE     NODE   VOLTAGE     NODE   VOLTAGE     NODE   VOLTAGE


(    1)    3.0000  (    2)    2.3600  




    VOLTAGE SOURCE CURRENTS
    NAME         CURRENT

    V1          -2.360E-03

    TOTAL POWER DISSIPATION   7.08E-03  WATTS


**** 09/13/21 10:01:54 ****** PSpice 17.2.0 (March 2016) ****** ID# 0 ********

 eg16.17


 ****     OPERATING POINT INFORMATION      TEMPERATURE =   27.000 DEG C


******************************************************************************






**** DIODES


NAME         D1        
MODEL        DMOD      
ID           2.36E-03 
VD           6.40E-01 
REQ          2.19E+01 
CAP          0.00E+00 

          JOB CONCLUDED

**** 09/13/21 10:01:54 ****** PSpice 17.2.0 (March 2016) ****** ID# 0 ********

 eg16.17


 ****     JOB STATISTICS SUMMARY


******************************************************************************



  Total job time (using Solver 1)   =         .30
