
**** 10/24/21 19:48:14 ****** PSpice 17.2.0 (March 2016) ****** ID# 0 ********

 EG16.32


 ****     CIRCUIT DESCRIPTION


******************************************************************************



VCC 5 0 DC 10V
RC 5 2 980
RB1 5 3 26E3
RB2 3 0 26E3
RE 4 0 2E3
CC 1 3 10E-6
Q 2 3 4 QMOD
.MODEL QMOD NPN (IS=3.6E-15)
V1 1 0 AC 1E-6
.AC LIN 1000 1 1E4
.PROBE
.END

**** 10/24/21 19:48:14 ****** PSpice 17.2.0 (March 2016) ****** ID# 0 ********

 EG16.32


 ****     BJT MODEL PARAMETERS


******************************************************************************




               QMOD            
               NPN             
       LEVEL    1            
          IS    3.600000E-15 
          BF  100            
          NF    1            
          BR    1            
          NR    1            
         ISS    0            
          RE    0            
          RC    0            
         CJE    0            
         VJE     .75         
         CJC    0            
         VJC     .75         
         MJC     .33         
        XCJC    1            
         CJS    0            
         VJS     .75         
          KF    0            
          AF    1            
          CN    2.42         
           D     .87         


**** 10/24/21 19:48:14 ****** PSpice 17.2.0 (March 2016) ****** ID# 0 ********

 EG16.32


 ****     SMALL SIGNAL BIAS SOLUTION       TEMPERATURE =   27.000 DEG C


******************************************************************************



 NODE   VOLTAGE     NODE   VOLTAGE     NODE   VOLTAGE     NODE   VOLTAGE


(    1)    0.0000  (    2)    8.0398  (    3)    4.7400  (    4)    4.0405      

(    5)   10.0000  




    VOLTAGE SOURCE CURRENTS
    NAME         CURRENT

    VCC         -2.203E-03
    V1           0.000E+00

    TOTAL POWER DISSIPATION   2.20E-02  WATTS



          JOB CONCLUDED

**** 10/24/21 19:48:14 ****** PSpice 17.2.0 (March 2016) ****** ID# 0 ********

 EG16.32


 ****     JOB STATISTICS SUMMARY


******************************************************************************



  Total job time (using Solver 1)   =         .03
