
**** 10/24/21 19:56:23 ****** PSpice 17.2.0 (March 2016) ****** ID# 0 ********

 EG16.35


 ****     CIRCUIT DESCRIPTION


******************************************************************************



V1 1 0 AC 1E-3
RCC 1 2 1E3
CC1 2 3 1E-6
RB1 6 3 90E3
RB2 3 0 10E3
RC 6 4 5E3
RE 5 0 1E3
CB 5 0 4.7E-6
CC2 4 7 4.7E-6
RL 7 0 5E3
VCC 6 0 DC 20
Q 4 3 5 Q2N2222
.LIB EVAL.LIB
.AC DEC 100 10 10E6
.PROBE
.END

**** 10/24/21 19:56:23 ****** PSpice 17.2.0 (March 2016) ****** ID# 0 ********

 EG16.35


 ****     BJT MODEL PARAMETERS


******************************************************************************




               Q2N2222         
               NPN             
       LEVEL    1            
          IS   14.340000E-15 
          BF  255.9          
          NF    1            
         VAF   74.03         
         IKF     .2847       
         ISE   14.340000E-15 
          NE    1.307        
          BR    6.092        
          NR    1            
         ISS    0            
          RB   10            
          RE    0            
          RC    1            
         CJE   22.010000E-12 
         VJE     .75         
         MJE     .377        
         CJC    7.306000E-12 
         VJC     .75         
         MJC     .3416       
        XCJC    1            
         CJS    0            
         VJS     .75         
          TF  411.100000E-12 
         XTF    3            
         VTF    1.7          
         ITF     .6          
          TR   46.910000E-09 
         XTB    1.5          
          KF    0            
          AF    1            
          CN    2.42         
           D     .87         


**** 10/24/21 19:56:23 ****** PSpice 17.2.0 (March 2016) ****** ID# 0 ********

 EG16.35


 ****     SMALL SIGNAL BIAS SOLUTION       TEMPERATURE =   27.000 DEG C


******************************************************************************



 NODE   VOLTAGE     NODE   VOLTAGE     NODE   VOLTAGE     NODE   VOLTAGE


(    1)    0.0000  (    2)    0.0000  (    3)    1.9334  (    4)   13.6120      

(    5)    1.2849  (    6)   20.0000  (    7)    0.0000  




    VOLTAGE SOURCE CURRENTS
    NAME         CURRENT

    V1           0.000E+00
    VCC         -1.478E-03

    TOTAL POWER DISSIPATION   2.96E-02  WATTS



          JOB CONCLUDED

**** 10/24/21 19:56:23 ****** PSpice 17.2.0 (March 2016) ****** ID# 0 ********

 EG16.35


 ****     JOB STATISTICS SUMMARY


******************************************************************************



  Total job time (using Solver 1)   =         .05
