
**** 09/13/21 08:30:40 ****** PSpice 17.2.0 (March 2016) ****** ID# 0 ********

 eg16.3


 ****     CIRCUIT DESCRIPTION


******************************************************************************



V1 1 0 DC 5
R1 1 2 2
R2 2 0 1
R3 2 4 5
R4 4 3 3
R5 4 0 4
E1 0 3 2 0 10
.OP
.END

**** 09/13/21 08:30:40 ****** PSpice 17.2.0 (March 2016) ****** ID# 0 ********

 eg16.3


 ****     SMALL SIGNAL BIAS SOLUTION       TEMPERATURE =   27.000 DEG C


******************************************************************************



 NODE   VOLTAGE     NODE   VOLTAGE     NODE   VOLTAGE     NODE   VOLTAGE


(    1)    5.0000  (    2)    1.0000  (    3)  -10.0000  (    4)   -4.0000  




    VOLTAGE SOURCE CURRENTS
    NAME         CURRENT

    V1          -2.000E+00

    TOTAL POWER DISSIPATION   1.00E+01  WATTS


**** 09/13/21 08:30:40 ****** PSpice 17.2.0 (March 2016) ****** ID# 0 ********

 eg16.3


 ****     OPERATING POINT INFORMATION      TEMPERATURE =   27.000 DEG C


******************************************************************************






**** VOLTAGE-CONTROLLED VOLTAGE SOURCES


NAME         E1        
V-SOURCE     1.000E+01
I-SOURCE    -2.000E+00

          JOB CONCLUDED

**** 09/13/21 08:30:40 ****** PSpice 17.2.0 (March 2016) ****** ID# 0 ********

 eg16.3


 ****     JOB STATISTICS SUMMARY


******************************************************************************



  Total job time (using Solver 1)   =        0.00
