
**** 09/19/21 22:51:41 ****** PSpice 17.2.0 (March 2016) ****** ID# 0 ********

 EG16.24


 ****     CIRCUIT DESCRIPTION


******************************************************************************



VCC 5 0 DC 5
V1 1 0
R1 5 2 5E3
R2 5 4 2E3
R3 5 7 100
R4 5 10 5E3
R5 6 0 1E3
Q1 3 2 1 Q2N3904
Q2 4 3 6 Q2N3904
Q4 7 4 8 Q2N3904
Q3 9 6 0 Q2N3904
Q5 11 10 9 Q2N3904
D1 8 9 D1N4148
D2 11 12 D1N4148
D3 12 0 D1N4148
.LIB EVAL.LIB
.DC V1 0 5 0.01
.TF V(9) V1
.PROBE
.END

**** 09/19/21 22:51:41 ****** PSpice 17.2.0 (March 2016) ****** ID# 0 ********

 EG16.24


 ****     Diode MODEL PARAMETERS


******************************************************************************




               D1N4148         
          IS    2.682000E-09 
           N    1.836        
         ISR    1.565000E-09 
         IKF     .04417      
          BV  100            
         IBV  100.000000E-06 
          RS     .5664       
          TT   11.540000E-09 
         CJO    4.000000E-12 
          VJ     .5          
           M     .3333       


**** 09/19/21 22:51:41 ****** PSpice 17.2.0 (March 2016) ****** ID# 0 ********

 EG16.24


 ****     BJT MODEL PARAMETERS


******************************************************************************




               Q2N3904         
               NPN             
       LEVEL    1            
          IS    6.734000E-15 
          BF  416.4          
          NF    1            
         VAF   74.03         
         IKF     .06678      
         ISE    6.734000E-15 
          NE    1.259        
          BR     .7371       
          NR    1            
         ISS    0            
          RB   10            
          RE    0            
          RC    1            
         CJE    4.493000E-12 
         VJE     .75         
         MJE     .2593       
         CJC    3.638000E-12 
         VJC     .75         
         MJC     .3085       
        XCJC    1            
         CJS    0            
         VJS     .75         
          TF  301.200000E-12 
         XTF    2            
         VTF    4            
         ITF     .4          
          TR  239.500000E-09 
         XTB    1.5          
          KF    0            
          AF    1            
          CN    2.42         
           D     .87         


**** 09/19/21 22:51:41 ****** PSpice 17.2.0 (March 2016) ****** ID# 0 ********

 EG16.24


 ****     SMALL SIGNAL BIAS SOLUTION       TEMPERATURE =   27.000 DEG C


******************************************************************************



 NODE   VOLTAGE     NODE   VOLTAGE     NODE   VOLTAGE     NODE   VOLTAGE


(    1)    0.0000  (    2)     .6846  (    3)     .0226  (    4)    4.9924      

(    5)    5.0000  (    6) 10.49E-09  (    7)    4.9546  (    8)    4.3473      

(    9)    3.7800  (   10)    1.8697  (   11)    1.2170  (   12)     .6085  




    VOLTAGE SOURCE CURRENTS
    NAME         CURRENT

    VCC         -1.947E-03
    V1           8.631E-04

    TOTAL POWER DISSIPATION   9.73E-03  WATTS






 ****     SMALL-SIGNAL CHARACTERISTICS


      V(9)/V1 =  1.515E-09

      INPUT RESISTANCE AT V1 =  5.040E+03

      OUTPUT RESISTANCE AT V(9) =  1.751E+02


          JOB CONCLUDED

**** 09/19/21 22:51:41 ****** PSpice 17.2.0 (March 2016) ****** ID# 0 ********

 EG16.24


 ****     JOB STATISTICS SUMMARY


******************************************************************************



  Total job time (using Solver 1)   =         .03
